Circuit: * Z:\run\media\thiagordp\Arquivos\ArquivosUFSC\2017-1\9aFase\TP-I\T5\Experimentos em aula\Circuito-3b.asc

Direct Newton iteration for .op point succeeded.
Semiconductor Device Operating Points:
                        --- MOSFET Transistors ---
Name:          m1
Model:        n_1u
Id:          4.32e-06
Vgs:         1.00e+00
Vds:         1.00e+00
Vbs:         1.13e-01
Vth:         8.54e-01
Vdsat:       1.58e-01
Gm:          4.04e-05
Gds:         2.45e-07
Gmb:         1.26e-05
Cbd:         0.00e+00
Cbs:         0.00e+00
Cgsov:       6.00e-16
Cgdov:       6.00e-16
Cgbov:       1.30e-16
Cgs:         4.49e-15
Cgd:         0.00e+00
Cgb:         0.00e+00



Date: Fri May 19 10:40:53 2017
Total elapsed time: 0.055 seconds.

tnom = 27
temp = 27
method = trap
totiter = 32
traniter = 0
tranpoints = 0
accept = 0
rejected = 0
matrix size = 4
fillins = 0
solver = Normal
Matrix Compiler1: 82 bytes object code size
Matrix Compiler2: 194 bytes object code size
