Circuit: * Z:\run\media\thiagordp\Arquivos\ArquivosUFSC\2017-1\9aFase\TP-I\T5\Experimentos em aula\Circuito-2.asc

Direct Newton iteration for .op point succeeded.
Semiconductor Device Operating Points:
                        --- MOSFET Transistors ---
Name:          m1
Model:        n_1u
Id:          3.93e-05
Vgs:         1.46e+00
Vds:         1.46e+00
Vbs:         1.25e-01
Vth:         8.51e-01
Vdsat:       4.72e-01
Gm:          1.01e-04
Gds:         4.28e-06
Gmb:         3.03e-05
Cbd:         0.00e+00
Cbs:         0.00e+00
Cgsov:       6.00e-16
Cgdov:       6.00e-16
Cgbov:       1.30e-16
Cgs:         4.49e-15
Cgd:         0.00e+00
Cgb:         0.00e+00



Date: Fri May 19 10:35:56 2017
Total elapsed time: 0.053 seconds.

tnom = 27
temp = 27
method = trap
totiter = 26
traniter = 0
tranpoints = 0
accept = 0
rejected = 0
matrix size = 4
fillins = 0
solver = Normal
Matrix Compiler1: 82 bytes object code size
Matrix Compiler2: 194 bytes object code size
