Questionable use of curly braces in ".model sir870adp vdmos(rg=3 vto=2.9 rd=3.2m rs=1.5m rb={m} kp=100 mtriode=1.85 cgdmax=1.4n cgdmin=70p cgs=2.9n cjo=3.6n m=.4 a=.7 vj=.7 lambda=20m is=3p ksubthres=.08 mfg=siliconix vds=100 ron=5.5m qg=53.5n)"
    Error: undefined symbol in: "[m]"
Circuit: * Z:\home\francisco\Files\College-UFSC\6th semester\Tópicos Especiais I -Microeletronica\Trabalho 5 Espelho de corrente\Parte 3\pt3.asc

Direct Newton iteration for .op point succeeded.
Semiconductor Device Operating Points:
                        --- MOSFET Transistors ---
Name:          m2          m1
Model:        n_1u        n_1u
Id:          2.98e-06    2.98e-06
Vgs:         1.00e+00    1.00e+00
Vds:         1.00e+00    1.00e+00
Vbs:         0.00e+00    0.00e+00
Vth:         8.90e-01    8.90e-01
Vdsat:       1.32e-01    1.32e-01
Gm:          3.43e-05    3.43e-05
Gds:         1.49e-07    1.49e-07
Gmb:         1.20e-05    1.20e-05
Cbd:         0.00e+00    0.00e+00
Cbs:         0.00e+00    0.00e+00
Cgsov:       6.00e-16    6.00e-16
Cgdov:       6.00e-16    6.00e-16
Cgbov:       1.30e-16    1.30e-16
Cgs:         4.49e-15    4.49e-15
Cgd:         0.00e+00    0.00e+00
Cgb:         0.00e+00    0.00e+00



Date: Mon Jun 05 20:43:43 2017
Total elapsed time: 0.075 seconds.

tnom = 27
temp = 27
method = trap
totiter = 8
traniter = 0
tranpoints = 0
accept = 0
rejected = 0
matrix size = 5
fillins = 0
solver = Normal
Matrix Compiler1: 78 bytes object code size
Matrix Compiler2: 213 bytes object code size

